# do compile.do
# QuestaSim-64 vmap 2024.1 Lib Mapping Utility 2024.02 Feb  1 2024
# vmap work work 
# Modifying modelsim.ini
# C:/questasim64_2024.1
# C:/questasim64_2024.1/verilog_src/uvm-1.2/src
# QuestaSim-64 vmap 2024.1 Lib Mapping Utility 2024.02 Feb  1 2024
# vmap mtiUvm C:/questasim64_2024.1/uvm-1.2 
# Modifying modelsim.ini
# QuestaSim-64 vlog 2024.1 Compiler 2024.02 Feb  1 2024
# Start time: 22:23:40 on Jun 24,2026
# vlog -sv -timescale 1ns/1ps -L mtiUvm "+incdir+C:/questasim64_2024.1/verilog_src/uvm-1.2/src" "+incdir+../tb" "+incdir+../tb/interfaces" "+incdir+../tb/agents" "+incdir+../tb/sequences" "+incdir+../tb/env" "+incdir+../tb/tests" ../tb/interfaces/apb_if.sv ../tb/interfaces/apb_assertions.sv ../rtl/apb_slave.sv ../tb/agents/agent_pkg.sv ../tb/sequences/apb_seq_pkg.sv ../tb/apb_pkg.sv ../tb/tests/apb_test_pkg.sv ../tb/top/apb_tb_top.sv 
# -- Compiling interface apb_if
# -- Compiling interface apb_assertions_if
# -- Compiling module apb_slave
# -- Compiling package agent_pkg
# -- Importing package mtiUvm.uvm_pkg (uvm-1.2 Built-in)
# -- Compiling package apb_seq_pkg
# -- Importing package agent_pkg
# -- Compiling package apb_pkg
# -- Compiling package apb_test_pkg
# -- Importing package apb_seq_pkg
# -- Importing package apb_pkg
# -- Compiling module apb_tb_top
# -- Importing package apb_test_pkg
# 
# Top level modules:
# 	apb_tb_top
# End time: 22:23:41 on Jun 24,2026, Elapsed time: 0:00:01
# Errors: 0, Warnings: 0
#  vsim -nodpiexports +UVM_NO_RELNOTES +UVM_TESTNAME=apb_random_test work.apb_tb_top
# vsim -nodpiexports "+UVM_NO_RELNOTES" "+UVM_TESTNAME=apb_random_test" work.apb_tb_top 
# Start time: 22:23:41 on Jun 24,2026
# ** Note: (vsim-3812) Design is being optimized...
# Support of the MGLS_LICENSE_FILE and LM_LICENSE_FILE licensing environment variables will be discontinued starting with the 2025.1 release. Please update to using the SALT_LICENSE_SERVER variable.
# Please contact Siemens EDA Customer Support (https://support.sw.siemens.com/) for assistance.
# //  Questa Sim-64
# //  Version 2024.1 win64 Feb  1 2024
# //
# // Unpublished work. Copyright 2024 Siemens
# //
# // This material contains trade secrets or otherwise confidential information
# // owned by Siemens Industry Software Inc. or its affiliates (collectively,
# // "SISW"), or its licensors. Access to and use of this information is strictly
# // limited as set forth in the Customer's applicable agreements with SISW.
# //
# // This material may not be copied, distributed, or otherwise disclosed outside
# // of the Customer's facilities without the express written permission of SISW,
# // and may not be used in any way not expressly authorized by SISW.
# //
# Loading sv_std.std
# Loading work.apb_if(fast)
# Loading mtiUvm.uvm_pkg(fast)
# Loading work.agent_pkg(fast)
# Loading work.apb_pkg(fast)
# Loading work.apb_seq_pkg(fast)
# Loading work.apb_test_pkg(fast)
# Loading mtiUvm.questa_uvm_pkg(fast)
# Loading work.apb_tb_top(fast)
# Loading C:/questasim64_2024.1/uvm-1.2\win64\uvm_dpi.dll
#  run -all
# UVM_INFO verilog_src/questa_uvm_pkg-1.2/src/questa_uvm_pkg.sv(277) @ 0: reporter [Questa UVM] QUESTA_UVM-1.2.3
# UVM_INFO verilog_src/questa_uvm_pkg-1.2/src/questa_uvm_pkg.sv(278) @ 0: reporter [Questa UVM]  questa_uvm::init(+struct)
# UVM_INFO @ 0: reporter [RNTST] Running test apb_random_test...
# UVM_INFO ../tb/agents/apb_mas_drv.sv(54) @ 75000: uvm_test_top.env_h.mas_agent_h.drv_h [MAS_DRV] completed WRITE addr=0x8 wait=2 err=0
# UVM_INFO ../tb/env/apb_scoreboard.sv(96) @ 75000: uvm_test_top.env_h.scoreboard_h [SB] WRITE PASS addr=0x8 data=0xb704daeb
# UVM_INFO ../tb/env/apb_scoreboard.sv(66) @ 75000: uvm_test_top.env_h.scoreboard_h [SB_MON_COMPARE] both monitors matched WRITE addr=0x8
# UVM_INFO ../tb/agents/apb_mas_drv.sv(54) @ 95000: uvm_test_top.env_h.mas_agent_h.drv_h [MAS_DRV] completed READ addr=0x12 wait=0 err=1
# ** Error: (vsim-8565) Illegal state bin was hit at value=1. The bin counter for the illegal bin 'apb_transfer_cg.cp_response.unexpected_error' is 1.
#    Time: 95 ns  Iteration: 2  Region: /uvm_pkg::uvm_task_phase::execute
# UVM_INFO ../tb/env/apb_scoreboard.sv(66) @ 95000: uvm_test_top.env_h.scoreboard_h [SB_MON_COMPARE] both monitors matched READ addr=0x12
# UVM_INFO ../tb/agents/apb_mas_drv.sv(54) @ 115000: uvm_test_top.env_h.mas_agent_h.drv_h [MAS_DRV] completed WRITE addr=0x0 wait=0 err=0
# UVM_INFO ../tb/env/apb_scoreboard.sv(96) @ 115000: uvm_test_top.env_h.scoreboard_h [SB] WRITE PASS addr=0x0 data=0x3bca606d
# UVM_INFO ../tb/env/apb_scoreboard.sv(66) @ 115000: uvm_test_top.env_h.scoreboard_h [SB_MON_COMPARE] both monitors matched WRITE addr=0x0
# UVM_INFO ../tb/agents/apb_mas_drv.sv(54) @ 135000: uvm_test_top.env_h.mas_agent_h.drv_h [MAS_DRV] completed READ addr=0x13 wait=0 err=1
# ** Error: (vsim-8565) Illegal state bin was hit at value=1. The bin counter for the illegal bin 'apb_transfer_cg.cp_response.unexpected_error' is 2.
#    Time: 135 ns  Iteration: 2  Region: /uvm_pkg::uvm_task_phase::execute
# UVM_INFO ../tb/env/apb_scoreboard.sv(66) @ 135000: uvm_test_top.env_h.scoreboard_h [SB_MON_COMPARE] both monitors matched READ addr=0x13
# UVM_INFO ../tb/agents/apb_mas_drv.sv(54) @ 155000: uvm_test_top.env_h.mas_agent_h.drv_h [MAS_DRV] completed READ addr=0x7 wait=0 err=0
# UVM_INFO ../tb/env/apb_scoreboard.sv(110) @ 155000: uvm_test_top.env_h.scoreboard_h [SB] READ PASS addr=0x7 data=0x0
# UVM_INFO ../tb/env/apb_scoreboard.sv(66) @ 155000: uvm_test_top.env_h.scoreboard_h [SB_MON_COMPARE] both monitors matched READ addr=0x7
# UVM_INFO ../tb/agents/apb_mas_drv.sv(54) @ 175000: uvm_test_top.env_h.mas_agent_h.drv_h [MAS_DRV] completed READ addr=0x12 wait=0 err=1
# ** Error: (vsim-8565) Illegal state bin was hit at value=1. The bin counter for the illegal bin 'apb_transfer_cg.cp_response.unexpected_error' is 3.
#    Time: 175 ns  Iteration: 2  Region: /uvm_pkg::uvm_task_phase::execute
# UVM_INFO ../tb/env/apb_scoreboard.sv(66) @ 175000: uvm_test_top.env_h.scoreboard_h [SB_MON_COMPARE] both monitors matched READ addr=0x12
# UVM_INFO ../tb/agents/apb_mas_drv.sv(54) @ 195000: uvm_test_top.env_h.mas_agent_h.drv_h [MAS_DRV] completed WRITE addr=0x11 wait=0 err=1
# UVM_INFO ../tb/env/apb_scoreboard.sv(66) @ 195000: uvm_test_top.env_h.scoreboard_h [SB_MON_COMPARE] both monitors matched WRITE addr=0x11
# UVM_INFO ../tb/agents/apb_mas_drv.sv(54) @ 215000: uvm_test_top.env_h.mas_agent_h.drv_h [MAS_DRV] completed READ addr=0x3 wait=0 err=0
# UVM_INFO ../tb/env/apb_scoreboard.sv(110) @ 215000: uvm_test_top.env_h.scoreboard_h [SB] READ PASS addr=0x3 data=0x0
# UVM_INFO ../tb/env/apb_scoreboard.sv(66) @ 215000: uvm_test_top.env_h.scoreboard_h [SB_MON_COMPARE] both monitors matched READ addr=0x3
# UVM_INFO ../tb/agents/apb_mas_drv.sv(54) @ 235000: uvm_test_top.env_h.mas_agent_h.drv_h [MAS_DRV] completed WRITE addr=0x6 wait=0 err=0
# UVM_INFO ../tb/env/apb_scoreboard.sv(96) @ 235000: uvm_test_top.env_h.scoreboard_h [SB] WRITE PASS addr=0x6 data=0x8c164f0d
# UVM_INFO ../tb/env/apb_scoreboard.sv(66) @ 235000: uvm_test_top.env_h.scoreboard_h [SB_MON_COMPARE] both monitors matched WRITE addr=0x6
# UVM_INFO ../tb/agents/apb_mas_drv.sv(54) @ 255000: uvm_test_top.env_h.mas_agent_h.drv_h [MAS_DRV] completed READ addr=0x2 wait=0 err=0
# UVM_INFO ../tb/env/apb_scoreboard.sv(110) @ 255000: uvm_test_top.env_h.scoreboard_h [SB] READ PASS addr=0x2 data=0x0
# UVM_INFO ../tb/env/apb_scoreboard.sv(66) @ 255000: uvm_test_top.env_h.scoreboard_h [SB_MON_COMPARE] both monitors matched READ addr=0x2
# UVM_INFO ../tb/agents/apb_mas_drv.sv(54) @ 275000: uvm_test_top.env_h.mas_agent_h.drv_h [MAS_DRV] completed WRITE addr=0x4 wait=0 err=0
# UVM_INFO ../tb/env/apb_scoreboard.sv(96) @ 275000: uvm_test_top.env_h.scoreboard_h [SB] WRITE PASS addr=0x4 data=0xa03d6ad0
# UVM_INFO ../tb/env/apb_scoreboard.sv(66) @ 275000: uvm_test_top.env_h.scoreboard_h [SB_MON_COMPARE] both monitors matched WRITE addr=0x4
# UVM_INFO ../tb/agents/apb_mas_drv.sv(54) @ 295000: uvm_test_top.env_h.mas_agent_h.drv_h [MAS_DRV] completed READ addr=0xc wait=0 err=0
# UVM_INFO ../tb/env/apb_scoreboard.sv(110) @ 295000: uvm_test_top.env_h.scoreboard_h [SB] READ PASS addr=0xc data=0x0
# UVM_INFO ../tb/env/apb_scoreboard.sv(66) @ 295000: uvm_test_top.env_h.scoreboard_h [SB_MON_COMPARE] both monitors matched READ addr=0xc
# UVM_INFO ../tb/agents/apb_mas_drv.sv(54) @ 315000: uvm_test_top.env_h.mas_agent_h.drv_h [MAS_DRV] completed READ addr=0xd wait=0 err=0
# UVM_INFO ../tb/env/apb_scoreboard.sv(110) @ 315000: uvm_test_top.env_h.scoreboard_h [SB] READ PASS addr=0xd data=0x0
# UVM_INFO ../tb/env/apb_scoreboard.sv(66) @ 315000: uvm_test_top.env_h.scoreboard_h [SB_MON_COMPARE] both monitors matched READ addr=0xd
# UVM_INFO ../tb/agents/apb_mas_drv.sv(54) @ 335000: uvm_test_top.env_h.mas_agent_h.drv_h [MAS_DRV] completed READ addr=0xb wait=0 err=0
# UVM_INFO ../tb/env/apb_scoreboard.sv(110) @ 335000: uvm_test_top.env_h.scoreboard_h [SB] READ PASS addr=0xb data=0x0
# UVM_INFO ../tb/env/apb_scoreboard.sv(66) @ 335000: uvm_test_top.env_h.scoreboard_h [SB_MON_COMPARE] both monitors matched READ addr=0xb
# UVM_INFO ../tb/agents/apb_mas_drv.sv(54) @ 355000: uvm_test_top.env_h.mas_agent_h.drv_h [MAS_DRV] completed WRITE addr=0x8 wait=0 err=0
# UVM_INFO ../tb/env/apb_scoreboard.sv(96) @ 355000: uvm_test_top.env_h.scoreboard_h [SB] WRITE PASS addr=0x8 data=0x4accb0b3
# UVM_INFO ../tb/env/apb_scoreboard.sv(66) @ 355000: uvm_test_top.env_h.scoreboard_h [SB_MON_COMPARE] both monitors matched WRITE addr=0x8
# UVM_INFO ../tb/agents/apb_mas_drv.sv(54) @ 375000: uvm_test_top.env_h.mas_agent_h.drv_h [MAS_DRV] completed READ addr=0x8 wait=0 err=0
# UVM_INFO ../tb/env/apb_scoreboard.sv(110) @ 375000: uvm_test_top.env_h.scoreboard_h [SB] READ PASS addr=0x8 data=0x4accb0b3
# UVM_INFO ../tb/env/apb_scoreboard.sv(66) @ 375000: uvm_test_top.env_h.scoreboard_h [SB_MON_COMPARE] both monitors matched READ addr=0x8
# UVM_INFO ../tb/agents/apb_mas_drv.sv(54) @ 395000: uvm_test_top.env_h.mas_agent_h.drv_h [MAS_DRV] completed READ addr=0xc wait=0 err=0
# UVM_INFO ../tb/env/apb_scoreboard.sv(110) @ 395000: uvm_test_top.env_h.scoreboard_h [SB] READ PASS addr=0xc data=0x0
# UVM_INFO ../tb/env/apb_scoreboard.sv(66) @ 395000: uvm_test_top.env_h.scoreboard_h [SB_MON_COMPARE] both monitors matched READ addr=0xc
# UVM_INFO ../tb/agents/apb_mas_drv.sv(54) @ 415000: uvm_test_top.env_h.mas_agent_h.drv_h [MAS_DRV] completed WRITE addr=0x8 wait=0 err=0
# UVM_INFO ../tb/env/apb_scoreboard.sv(96) @ 415000: uvm_test_top.env_h.scoreboard_h [SB] WRITE PASS addr=0x8 data=0x224fda78
# UVM_INFO ../tb/env/apb_scoreboard.sv(66) @ 415000: uvm_test_top.env_h.scoreboard_h [SB_MON_COMPARE] both monitors matched WRITE addr=0x8
# UVM_INFO ../tb/agents/apb_mas_drv.sv(54) @ 435000: uvm_test_top.env_h.mas_agent_h.drv_h [MAS_DRV] completed READ addr=0x1 wait=0 err=0
# UVM_INFO ../tb/env/apb_scoreboard.sv(110) @ 435000: uvm_test_top.env_h.scoreboard_h [SB] READ PASS addr=0x1 data=0x0
# UVM_INFO ../tb/env/apb_scoreboard.sv(66) @ 435000: uvm_test_top.env_h.scoreboard_h [SB_MON_COMPARE] both monitors matched READ addr=0x1
# UVM_INFO ../tb/agents/apb_mas_drv.sv(54) @ 455000: uvm_test_top.env_h.mas_agent_h.drv_h [MAS_DRV] completed WRITE addr=0x3 wait=0 err=0
# UVM_INFO ../tb/env/apb_scoreboard.sv(96) @ 455000: uvm_test_top.env_h.scoreboard_h [SB] WRITE PASS addr=0x3 data=0xa220c6d7
# UVM_INFO ../tb/env/apb_scoreboard.sv(66) @ 455000: uvm_test_top.env_h.scoreboard_h [SB_MON_COMPARE] both monitors matched WRITE addr=0x3
# UVM_INFO verilog_src/uvm-1.2/src/base/uvm_objection.svh(1270) @ 455000: reporter [TEST_DONE] 'run' phase is ready to proceed to the 'extract' phase
# ======================================
# FUNCTIONAL COVERAGE = 63.10 % 
#   Transfer coverage = 89.29 %
#   Write data coverage = 66.67 %
#   Read data coverage = 33.33 %
#   Samples total/write/read = 20/8/12
# ======================================
# UVM_INFO ../tb/env/apb_scoreboard.sv(131) @ 455000: uvm_test_top.env_h.scoreboard_h [SB_REPORT] writes=7 reads=9 monitor_pairs=20 errors=0
# UVM_INFO verilog_src/uvm-1.2/src/base/uvm_report_server.svh(847) @ 455000: reporter [UVM/REPORT/SERVER] 
# --- UVM Report Summary ---
# 
# ** Report counts by severity
# UVM_INFO :   61
# UVM_WARNING :    0
# UVM_ERROR :    0
# UVM_FATAL :    0
# ** Report counts by id
# [MAS_DRV]    20
# [Questa UVM]     2
# [RNTST]     1
# [SB]    16
# [SB_MON_COMPARE]    20
# [SB_REPORT]     1
# [TEST_DONE]     1
# 
# ** Note: $finish    : C:/questasim64_2024.1/win64/../verilog_src/uvm-1.2/src/base/uvm_root.svh(517)
#    Time: 455 ns  Iteration: 77  Instance: /apb_tb_top
#  ==========    ==========   ==========   ========== 
#  =        =    =        =   =            =          
#  =        =    =        =   =            =          
#  ==========    ==========   ==========   ========== 
#  =             =        =            =            = 
#  =             =        =            =            = 
#  =             =        =            =            = 
#  =             =        =   ==========   ========== 
# Pass_cnt = 20
# Fail_cnt = 0
# ======================================
# FUNCTIONAL COVERAGE = 63.10 % 
#   Transfer coverage = 89.29 %
#   Write data coverage = 66.67 %
#   Read data coverage = 33.33 %
#   Samples total/write/read = 20/8/12
# ======================================
# End time: 22:23:44 on Jun 24,2026, Elapsed time: 0:00:03
# Errors: 3, Warnings: 0
